!Agilent Technologies,E8362C,MY49020251,A.08.50.10
!Agilent E8362C: A.08.50.10
!Date: Wednesday, June 06, 2018 05:48:39
!Correction: S11(Full 2 Port(1,2)) 
!S21(Full 2 Port(1,2)) 
!S12(Full 2 Port(1,2)) 
!S22(Full 2 Port(1,2)) 
!S2P File: Measurements: S11, S21, S12, S22:
# Hz S  RI   R 50
1000000000 5.055214e-001 8.296980e-001 2.965941e-002 -1.328806e-002 2.973717e-002 -1.341823e-002 4.645591e-001 8.556861e-001
1020000000 5.530585e-001 7.986496e-001 2.883484e-002 -1.463869e-002 2.812153e-002 -1.459125e-002 4.980221e-001 8.357311e-001
1040000000 6.012368e-001 7.642320e-001 2.694037e-002 -1.516932e-002 2.657355e-002 -1.555771e-002 5.313014e-001 8.173641e-001
1060000000 6.398349e-001 7.316660e-001 2.574226e-002 -1.550679e-002 2.624173e-002 -1.590808e-002 5.632421e-001 7.948543e-001
1080000000 6.825101e-001 6.931010e-001 2.678161e-002 -1.702084e-002 2.673486e-002 -1.643663e-002 5.956424e-001 7.709667e-001
1100000000 7.195263e-001 6.562943e-001 2.665042e-002 -1.842164e-002 2.581199e-002 -1.820376e-002 6.241558e-001 7.458270e-001
1120000000 7.574733e-001 6.158777e-001 2.478781e-002 -2.052452e-002 2.430120e-002 -2.037571e-002 6.518606e-001 7.236012e-001
1140000000 7.861823e-001 5.720686e-001 2.270871e-002 -2.244178e-002 2.230874e-002 -2.197329e-002 6.796764e-001 6.963752e-001
1160000000 8.150007e-001 5.341192e-001 2.091405e-002 -2.205376e-002 2.004416e-002 -2.176389e-002 7.039863e-001 6.714228e-001
1180000000 8.455317e-001 4.853433e-001 1.879715e-002 -2.181957e-002 1.902952e-002 -2.123743e-002 7.313800e-001 6.417536e-001
1200000000 8.689589e-001 4.425312e-001 1.793979e-002 -2.151256e-002 1.813461e-002 -2.109764e-002 7.593330e-001 6.111109e-001
1220000000 8.886145e-001 3.979952e-001 1.843491e-002 -2.128951e-002 1.799893e-002 -2.171583e-002 7.782945e-001 5.835857e-001
1240000000 9.075035e-001 3.517435e-001 1.676698e-002 -2.226915e-002 1.698233e-002 -2.236790e-002 8.000673e-001 5.513304e-001
1260000000 9.245866e-001 3.026510e-001 1.572118e-002 -2.299239e-002 1.535900e-002 -2.320091e-002 8.172690e-001 5.240651e-001
1280000000 9.371042e-001 2.526471e-001 1.316513e-002 -2.299620e-002 1.222025e-002 -2.336122e-002 8.394176e-001 4.901102e-001
1300000000 9.496472e-001 2.037974e-001 1.037198e-002 -2.238700e-002 1.114157e-002 -2.187430e-002 8.597286e-001 4.555844e-001
1320000000 9.598469e-001 1.521151e-001 8.603639e-003 -2.055740e-002 9.385429e-003 -2.042083e-002 8.762215e-001 4.218678e-001
1340000000 9.682021e-001 9.906579e-002 7.654368e-003 -1.845079e-002 7.534680e-003 -1.856899e-002 8.921075e-001 3.858385e-001
1360000000 9.711823e-001 4.394470e-002 7.443856e-003 -1.609870e-002 7.209071e-003 -1.622839e-002 9.052868e-001 3.504341e-001
1380000000 9.687670e-001 -9.756695e-003 6.413340e-003 -1.467332e-002 6.212130e-003 -1.389421e-002 9.188451e-001 3.156345e-001
1400000000 9.642569e-001 -6.824478e-002 5.149667e-003 -1.154144e-002 5.174885e-003 -1.204624e-002 9.288596e-001 2.772159e-001
1420000000 9.587423e-001 -1.253536e-001 3.628831e-003 -8.002335e-003 4.282088e-003 -8.096805e-003 9.410308e-001 2.380536e-001
1440000000 9.471934e-001 -1.907477e-001 2.922534e-003 -2.723148e-003 3.184674e-003 -3.086781e-003 9.466397e-001 1.971043e-001
1460000000 9.284393e-001 -2.592925e-001 3.842086e-003 4.725358e-003 4.269005e-003 4.349089e-003 9.545709e-001 1.554643e-001
1480000000 9.030849e-001 -3.261684e-001 6.644655e-003 1.246386e-002 6.535626e-003 1.250158e-002 9.586523e-001 1.163610e-001
1500000000 8.691179e-001 -3.955140e-001 1.004269e-002 2.136965e-002 1.075931e-002 2.194364e-002 9.641655e-001 7.460991e-002
1520000000 8.240182e-001 -4.711723e-001 1.745784e-002 3.271005e-002 1.737313e-002 3.287670e-002 9.655414e-001 2.958472e-002
1540000000 7.606407e-001 -5.537609e-001 2.835787e-002 4.594338e-002 2.797127e-002 4.564865e-002 9.571253e-001 -1.855577e-002
1560000000 6.704892e-001 -6.308766e-001 4.519792e-002 6.271636e-002 4.475304e-002 6.120843e-002 9.601699e-001 -6.514572e-002
1580000000 5.524457e-001 -7.126159e-001 7.088981e-002 7.953039e-002 7.121377e-002 7.986858e-002 9.469852e-001 -1.059168e-001
1600000000 3.863876e-001 -7.695172e-001 1.126763e-001 9.533948e-002 1.108712e-001 9.527317e-002 9.267765e-001 -1.578425e-001
1620000000 1.575385e-001 -7.812706e-001 1.761337e-001 1.019840e-001 1.735794e-001 1.009000e-001 9.052812e-001 -2.076778e-001
1640000000 -1.207485e-001 -6.785495e-001 2.606277e-001 7.755189e-002 2.609645e-001 7.740474e-002 8.689967e-001 -2.464341e-001
1660000000 -3.628792e-001 -3.874654e-001 3.521493e-001 -9.078676e-003 3.468794e-001 -2.891250e-003 8.177399e-001 -2.742285e-001
1680000000 -3.894547e-001 3.453270e-002 3.878339e-001 -1.524171e-001 3.856461e-001 -1.529097e-001 7.850595e-001 -2.783379e-001
1700000000 -1.440230e-001 3.802878e-001 3.284470e-001 -2.954252e-001 3.314625e-001 -2.885613e-001 7.743442e-001 -2.655714e-001
1720000000 1.767595e-001 4.998134e-001 2.272095e-001 -3.714054e-001 2.283506e-001 -3.691624e-001 7.763157e-001 -2.809406e-001
1740000000 4.498999e-001 4.554149e-001 1.260047e-001 -3.959722e-001 1.278179e-001 -3.944635e-001 7.882140e-001 -3.114411e-001
1760000000 6.334543e-001 3.477216e-001 4.825186e-002 -3.910312e-001 5.109960e-002 -3.899974e-001 7.910284e-001 -3.406217e-001
1780000000 7.415694e-001 2.223730e-001 -8.038228e-003 -3.744724e-001 -7.007254e-003 -3.749974e-001 7.750206e-001 -3.863353e-001
1800000000 7.946966e-001 1.028094e-001 -5.306604e-002 -3.586283e-001 -5.092564e-002 -3.567103e-001 7.684914e-001 -4.333028e-001
1820000000 8.211989e-001 -4.827083e-003 -8.693440e-002 -3.414181e-001 -8.679309e-002 -3.408425e-001 7.483400e-001 -4.690836e-001
1840000000 8.346779e-001 -9.638727e-002 -1.183214e-001 -3.264780e-001 -1.159849e-001 -3.248272e-001 7.151901e-001 -5.122213e-001
1860000000 8.319703e-001 -1.735803e-001 -1.463019e-001 -3.140341e-001 -1.448695e-001 -3.112743e-001 6.872656e-001 -5.581758e-001
1880000000 8.216078e-001 -2.563895e-001 -1.723911e-001 -2.993454e-001 -1.728892e-001 -2.981935e-001 6.515009e-001 -5.911085e-001
1900000000 8.037357e-001 -3.249452e-001 -1.972183e-001 -2.855578e-001 -1.941973e-001 -2.859661e-001 6.080326e-001 -6.274670e-001
1920000000 7.792219e-001 -3.779073e-001 -2.187885e-001 -2.739757e-001 -2.161720e-001 -2.732655e-001 5.664899e-001 -6.646664e-001
1940000000 7.422616e-001 -4.426221e-001 -2.460866e-001 -2.593878e-001 -2.459339e-001 -2.572877e-001 5.194750e-001 -6.928179e-001
1960000000 7.135060e-001 -4.917257e-001 -2.701259e-001 -2.450440e-001 -2.680649e-001 -2.456931e-001 4.630626e-001 -7.190806e-001
1980000000 6.789173e-001 -5.284815e-001 -2.946835e-001 -2.289397e-001 -2.941605e-001 -2.314651e-001 4.060579e-001 -7.485204e-001
2000000000 6.311837e-001 -5.784490e-001 -3.223349e-001 -2.121857e-001 -3.212564e-001 -2.109339e-001 3.503671e-001 -7.635194e-001
2020000000 5.969371e-001 -6.163526e-001 -3.471285e-001 -1.913599e-001 -3.450469e-001 -1.924046e-001 2.813160e-001 -7.727076e-001
2040000000 5.516004e-001 -6.449736e-001 -3.737315e-001 -1.664857e-001 -3.711278e-001 -1.655315e-001 2.122929e-001 -7.827121e-001
2060000000 5.023928e-001 -6.703986e-001 -3.998143e-001 -1.432055e-001 -4.010409e-001 -1.411010e-001 1.459107e-001 -7.814499e-001
2080000000 4.560272e-001 -6.975865e-001 -4.251290e-001 -1.095993e-001 -4.250276e-001 -1.110335e-001 7.327909e-002 -7.702750e-001
2100000000 4.072681e-001 -7.062175e-001 -4.496083e-001 -7.517579e-002 -4.474600e-001 -7.501502e-002 -1.469529e-003 -7.556667e-001
2120000000 3.518380e-001 -7.166348e-001 -4.698994e-001 -3.764679e-002 -4.725921e-001 -3.597409e-002 -6.950496e-002 -7.291352e-001
2140000000 3.014310e-001 -7.321254e-001 -4.941944e-001 1.116790e-002 -4.919642e-001 7.509838e-003 -1.442876e-001 -6.902938e-001
2160000000 2.581429e-001 -7.285163e-001 -5.076256e-001 5.923463e-002 -5.065089e-001 5.769266e-002 -2.088948e-001 -6.418132e-001
2180000000 2.039706e-001 -7.286060e-001 -5.148975e-001 1.112279e-001 -5.156363e-001 1.108000e-001 -2.630894e-001 -5.870022e-001
2200000000 1.607970e-001 -7.257999e-001 -5.189783e-001 1.652747e-001 -5.201308e-001 1.639109e-001 -3.137423e-001 -5.236650e-001
2220000000 1.184513e-001 -7.145572e-001 -5.167743e-001 2.230468e-001 -5.146251e-001 2.226724e-001 -3.573425e-001 -4.532564e-001
2240000000 6.515159e-002 -6.964215e-001 -5.075209e-001 2.847240e-001 -5.079238e-001 2.874363e-001 -3.924223e-001 -3.753993e-001
2260000000 2.809609e-002 -6.821166e-001 -4.865268e-001 3.481346e-001 -4.905238e-001 3.450193e-001 -4.098469e-001 -2.935067e-001
2280000000 -2.648452e-003 -6.607508e-001 -4.613661e-001 4.087663e-001 -4.558330e-001 4.074725e-001 -4.133369e-001 -2.078145e-001
2300000000 -3.889370e-002 -6.411620e-001 -4.202638e-001 4.651640e-001 -4.185867e-001 4.682637e-001 -4.062553e-001 -1.305043e-001
2320000000 -7.241800e-002 -6.226962e-001 -3.752068e-001 5.170393e-001 -3.771734e-001 5.141977e-001 -3.853438e-001 -5.808600e-002
2340000000 -9.915983e-002 -6.028695e-001 -3.281424e-001 5.611168e-001 -3.237699e-001 5.585634e-001 -3.561052e-001 8.736423e-003
2360000000 -1.294250e-001 -5.778357e-001 -2.707378e-001 6.000856e-001 -2.709249e-001 6.031380e-001 -3.302002e-001 7.007385e-002
2380000000 -1.573316e-001 -5.559290e-001 -2.096941e-001 6.391289e-001 -2.126594e-001 6.349672e-001 -2.889478e-001 1.262588e-001
2400000000 -1.793732e-001 -5.339465e-001 -1.452786e-001 6.689278e-001 -1.398101e-001 6.635987e-001 -2.392601e-001 1.776578e-001
2420000000 -2.027675e-001 -5.086303e-001 -6.849334e-002 6.830008e-001 -7.018114e-002 6.865594e-001 -1.861586e-001 2.148218e-001
2440000000 -2.274186e-001 -4.873754e-001 8.842379e-003 6.953996e-001 1.758471e-003 6.896778e-001 -1.335059e-001 2.367521e-001
2460000000 -2.516074e-001 -4.667304e-001 7.270091e-002 6.889488e-001 7.556688e-002 6.835252e-001 -8.562479e-002 2.472132e-001
2480000000 -2.768921e-001 -4.405070e-001 1.389822e-001 6.766985e-001 1.409017e-001 6.804110e-001 -4.314934e-002 2.635150e-001
2500000000 -3.117290e-001 -4.109730e-001 2.102704e-001 6.672112e-001 2.037951e-001 6.662490e-001 -7.672607e-003 2.701131e-001
2520000000 -3.376662e-001 -3.773966e-001 2.743276e-001 6.511084e-001 2.748564e-001 6.491573e-001 3.744615e-002 2.834243e-001
2540000000 -3.606043e-001 -3.375556e-001 3.423423e-001 6.196086e-001 3.432395e-001 6.254246e-001 7.881989e-002 2.869954e-001
2560000000 -3.851792e-001 -2.991926e-001 4.120154e-001 5.907812e-001 4.069875e-001 5.891371e-001 1.193621e-001 2.816608e-001
2580000000 -4.080974e-001 -2.594083e-001 4.687892e-001 5.447624e-001 4.698331e-001 5.401229e-001 1.554896e-001 2.668597e-001
2600000000 -4.303998e-001 -2.093953e-001 5.173983e-001 4.872949e-001 5.183880e-001 4.876444e-001 1.804927e-001 2.576681e-001
2620000000 -4.544307e-001 -1.512416e-001 5.673927e-001 4.356171e-001 5.625308e-001 4.379113e-001 1.968263e-001 2.533120e-001
2640000000 -4.652427e-001 -8.935699e-002 6.019577e-001 3.827675e-001 6.034133e-001 3.826844e-001 2.236735e-001 2.578096e-001
2660000000 -4.696448e-001 -1.986648e-002 6.388910e-001 3.189075e-001 6.394444e-001 3.232756e-001 2.541643e-001 2.584577e-001
2680000000 -4.633852e-001 5.414420e-002 6.774378e-001 2.504767e-001 6.749828e-001 2.515160e-001 2.839614e-001 2.506448e-001
2700000000 -4.453031e-001 1.260776e-001 6.937256e-001 1.834296e-001 6.944863e-001 1.825052e-001 3.084444e-001 2.387294e-001
2720000000 -4.200582e-001 1.993182e-001 7.045897e-001 1.041230e-001 7.067446e-001 1.078346e-001 3.298970e-001 2.324245e-001
2740000000 -3.821963e-001 2.698315e-001 7.122883e-001 2.824668e-002 7.084415e-001 3.098533e-002 3.546559e-001 2.287010e-001
2760000000 -3.335158e-001 3.391887e-001 7.037442e-001 -4.265871e-002 7.022902e-001 -4.332513e-002 3.823833e-001 2.198712e-001
2780000000 -2.764546e-001 4.000649e-001 6.873009e-001 -1.173327e-001 6.883916e-001 -1.136147e-001 4.128207e-001 2.051748e-001
2800000000 -2.086073e-001 4.495064e-001 6.647424e-001 -1.874648e-001 6.633804e-001 -1.848873e-001 4.386394e-001 1.925471e-001
2820000000 -1.315237e-001 4.935174e-001 6.267970e-001 -2.483660e-001 6.298299e-001 -2.503746e-001 4.627519e-001 1.777654e-001
2840000000 -5.297239e-002 5.313028e-001 5.845187e-001 -3.108245e-001 5.848171e-001 -3.064185e-001 4.863464e-001 1.591297e-001
2860000000 3.703243e-002 5.479674e-001 5.413434e-001 -3.649944e-001 5.412340e-001 -3.641871e-001 5.071914e-001 1.431640e-001
2880000000 1.276518e-001 5.593097e-001 4.841939e-001 -4.049143e-001 4.862427e-001 -4.034554e-001 5.291013e-001 1.240374e-001
2900000000 2.124053e-001 5.554085e-001 4.262784e-001 -4.403725e-001 4.271200e-001 -4.392212e-001 5.502208e-001 1.015201e-001
2920000000 2.980935e-001 5.343942e-001 3.694609e-001 -4.603922e-001 3.682100e-001 -4.583256e-001 5.747706e-001 7.663209e-002
2940000000 3.834106e-001 5.110949e-001 3.133876e-001 -4.711496e-001 3.129498e-001 -4.730079e-001 5.931420e-001 5.212410e-002
2960000000 4.557927e-001 4.710973e-001 2.588620e-001 -4.812769e-001 2.576513e-001 -4.810264e-001 6.059495e-001 2.625022e-002
2980000000 5.253717e-001 4.219647e-001 2.099883e-001 -4.803624e-001 2.108120e-001 -4.802323e-001 6.203836e-001 -1.138934e-003
3000000000 5.825327e-001 3.714586e-001 1.651957e-001 -4.779751e-001 1.651527e-001 -4.788392e-001 6.344997e-001 -3.017594e-002
3020000000 6.348271e-001 3.136524e-001 1.228225e-001 -4.730710e-001 1.238251e-001 -4.725641e-001 6.450701e-001 -6.193030e-002
3040000000 6.786733e-001 2.540801e-001 8.191273e-002 -4.650225e-001 8.307137e-002 -4.647329e-001 6.566114e-001 -9.125648e-002
3060000000 7.158070e-001 1.923063e-001 4.250852e-002 -4.510731e-001 4.349281e-002 -4.515202e-001 6.616296e-001 -1.238346e-001
3080000000 7.447377e-001 1.213829e-001 1.696773e-002 -4.283335e-001 1.879331e-002 -4.266998e-001 6.669192e-001 -1.546101e-001
3100000000 7.628709e-001 6.693605e-002 -2.088556e-002 -4.124883e-001 -2.366177e-002 -4.111706e-001 6.628019e-001 -1.855187e-001
3120000000 7.629318e-001 -2.506324e-003 -3.905798e-002 -3.998018e-001 -3.801408e-002 -4.036506e-001 6.637067e-001 -2.155930e-001
3140000000 7.831284e-001 -6.844191e-002 -5.575441e-002 -3.802543e-001 -5.286940e-002 -3.767418e-001 6.643951e-001 -2.431725e-001
3160000000 7.851707e-001 -1.113312e-001 -8.030745e-002 -3.613005e-001 -8.204412e-002 -3.603362e-001 6.594681e-001 -2.742455e-001
3180000000 7.714053e-001 -1.693686e-001 -9.800380e-002 -3.560880e-001 -9.681539e-002 -3.575858e-001 6.542559e-001 -3.099611e-001
3200000000 7.792073e-001 -2.350509e-001 -1.102676e-001 -3.298758e-001 -1.053784e-001 -3.307269e-001 6.497982e-001 -3.352788e-001
3220000000 7.703313e-001 -2.779202e-001 -1.294345e-001 -3.110828e-001 -1.312495e-001 -3.107479e-001 6.324716e-001 -3.644433e-001
3240000000 7.397426e-001 -3.329814e-001 -1.397317e-001 -2.993295e-001 -1.408312e-001 -3.029863e-001 6.200164e-001 -3.901584e-001
3260000000 7.355573e-001 -3.928993e-001 -1.408682e-001 -2.822612e-001 -1.390090e-001 -2.827627e-001 6.104374e-001 -4.099976e-001
3280000000 7.169235e-001 -4.220040e-001 -1.573707e-001 -2.650991e-001 -1.572626e-001 -2.640001e-001 5.984475e-001 -4.317261e-001
3300000000 6.858323e-001 -4.668960e-001 -1.652296e-001 -2.610504e-001 -1.662208e-001 -2.622710e-001 5.873923e-001 -4.568555e-001
3320000000 6.736820e-001 -5.215730e-001 -1.683501e-001 -2.454932e-001 -1.656913e-001 -2.451048e-001 5.749769e-001 -4.800342e-001
3340000000 6.505355e-001 -5.438380e-001 -1.814202e-001 -2.293532e-001 -1.814214e-001 -2.282579e-001 5.610904e-001 -4.993308e-001
3360000000 6.106952e-001 -5.830796e-001 -1.917198e-001 -2.228634e-001 -1.916704e-001 -2.243229e-001 5.448106e-001 -5.252050e-001
3380000000 5.901375e-001 -6.308683e-001 -1.902601e-001 -2.073223e-001 -1.876918e-001 -2.080534e-001 5.298184e-001 -5.412807e-001
3400000000 5.630446e-001 -6.477519e-001 -1.997392e-001 -1.900881e-001 -2.001030e-001 -1.886900e-001 5.089999e-001 -5.603641e-001
3420000000 5.178447e-001 -6.780406e-001 -2.041399e-001 -1.858712e-001 -2.056997e-001 -1.876447e-001 4.939947e-001 -5.779459e-001
3440000000 4.923604e-001 -7.199845e-001 -2.043842e-001 -1.750351e-001 -2.029140e-001 -1.757457e-001 4.818883e-001 -5.916919e-001
3460000000 4.712264e-001 -7.272414e-001 -2.116835e-001 -1.601306e-001 -2.121195e-001 -1.585432e-001 4.616322e-001 -6.125652e-001
3480000000 4.180140e-001 -7.528272e-001 -2.191567e-001 -1.548727e-001 -2.209256e-001 -1.557327e-001 4.443073e-001 -6.299513e-001
3500000000 3.864579e-001 -7.873135e-001 -2.168927e-001 -1.434212e-001 -2.148821e-001 -1.453548e-001 4.221573e-001 -6.435795e-001
3520000000 3.620248e-001 -7.968876e-001 -2.238336e-001 -1.285965e-001 -2.243589e-001 -1.281520e-001 3.969592e-001 -6.567116e-001
3540000000 3.084996e-001 -8.110475e-001 -2.312489e-001 -1.220263e-001 -2.321975e-001 -1.237264e-001 3.786445e-001 -6.662788e-001
3560000000 2.776339e-001 -8.410962e-001 -2.258750e-001 -1.161207e-001 -2.243902e-001 -1.179131e-001 3.589648e-001 -6.748798e-001
3580000000 2.500991e-001 -8.435075e-001 -2.345983e-001 -1.026184e-001 -2.335878e-001 -1.007132e-001 3.421582e-001 -6.884447e-001
3600000000 1.964635e-001 -8.502005e-001 -2.390413e-001 -9.707505e-002 -2.418814e-001 -9.783308e-002 3.252440e-001 -7.005886e-001
3620000000 1.578166e-001 -8.778329e-001 -2.405432e-001 -9.172526e-002 -2.408012e-001 -9.192890e-002 3.032115e-001 -7.127959e-001
3640000000 1.281578e-001 -8.784787e-001 -2.459080e-001 -7.358743e-002 -2.442550e-001 -7.257954e-002 2.784189e-001 -7.240995e-001
3660000000 6.826036e-002 -8.754086e-001 -2.535127e-001 -6.755341e-002 -2.544844e-001 -6.783068e-002 2.554715e-001 -7.292854e-001
3680000000 2.907174e-002 -8.927838e-001 -2.511110e-001 -6.067018e-002 -2.477861e-001 -6.241937e-002 2.355586e-001 -7.304009e-001
3700000000 -4.416497e-003 -8.914889e-001 -2.545606e-001 -4.723452e-002 -2.534601e-001 -4.682770e-002 2.164611e-001 -7.403842e-001
3720000000 -5.860977e-002 -8.761132e-001 -2.637290e-001 -4.113043e-002 -2.652991e-001 -4.148716e-002 2.003041e-001 -7.447296e-001
3740000000 -1.057750e-001 -8.886852e-001 -2.633384e-001 -3.654986e-002 -2.618174e-001 -3.847693e-002 1.734605e-001 -7.513386e-001
3760000000 -1.360737e-001 -8.759699e-001 -2.700714e-001 -2.215980e-002 -2.695021e-001 -2.114834e-002 1.543502e-001 -7.596837e-001
3780000000 -1.902020e-001 -8.489487e-001 -2.808055e-001 -1.126631e-002 -2.831612e-001 -1.072056e-002 1.338333e-001 -7.634541e-001
3800000000 -2.347538e-001 -8.524798e-001 -2.832236e-001 -1.215875e-003 -2.821123e-001 -1.902853e-003 1.030240e-001 -7.650526e-001
3820000000 -2.826588e-001 -8.345186e-001 -2.877338e-001 9.717565e-003 -2.873480e-001 9.294959e-003 8.452343e-002 -7.639093e-001
3840000000 -3.281890e-001 -8.133533e-001 -2.939327e-001 2.106301e-002 -2.933933e-001 2.081836e-002 6.214726e-002 -7.668988e-001
3860000000 -3.744142e-001 -7.871923e-001 -3.026778e-001 3.454299e-002 -3.011554e-001 3.485341e-002 4.203024e-002 -7.680994e-001
3880000000 -4.114483e-001 -7.517722e-001 -3.089630e-001 5.593434e-002 -3.107056e-001 5.739392e-002 1.667126e-002 -7.708980e-001
3900000000 -4.769051e-001 -7.155303e-001 -3.190560e-001 6.745778e-002 -3.190511e-001 6.554676e-002 -1.046207e-002 -7.645345e-001
3920000000 -5.106250e-001 -6.977428e-001 -3.182135e-001 8.920407e-002 -3.150230e-001 8.798069e-002 -4.062912e-002 -7.683317e-001
3940000000 -5.422913e-001 -6.301219e-001 -3.275648e-001 1.118550e-001 -3.286537e-001 1.135332e-001 -5.797280e-002 -7.612271e-001
3960000000 -6.030051e-001 -5.770879e-001 -3.352260e-001 1.310471e-001 -3.360135e-001 1.282612e-001 -8.658575e-002 -7.468548e-001
3980000000 -6.321092e-001 -5.334545e-001 -3.342759e-001 1.542801e-001 -3.309060e-001 1.518251e-001 -1.138616e-001 -7.390366e-001
4000000000 -6.404462e-001 -4.542572e-001 -3.392529e-001 1.877345e-001 -3.385385e-001 1.886274e-001 -1.297698e-001 -7.318776e-001
4020000000 -6.843616e-001 -3.655008e-001 -3.447008e-001 2.149640e-001 -3.480266e-001 2.111910e-001 -1.501972e-001 -7.096266e-001
4040000000 -6.916162e-001 -3.064559e-001 -3.369427e-001 2.510602e-001 -3.337145e-001 2.452818e-001 -1.799797e-001 -7.028137e-001
