!Agilent Technologies,E8362C,MY49020251,A.08.50.10
!Agilent E8362C: A.08.50.10
!Date: Wednesday, June 06, 2018 05:41:22
!Correction: S11(Off) 
!S21(Off) 
!S12(Off) 
!S22(Off) 
!S2P File: Measurements: S11, S21, S12, S22:
# Hz S  RI   R 50
534419682.00099 7.071068e-011 7.071068e-011 -2.222468e-001 -3.347723e-001 7.071068e-011 7.071068e-011 7.071068e-011 7.071068e-011
551771278.45495 7.071068e-011 7.071068e-011 -3.970316e-001 -7.884647e-003 7.071068e-011 7.071068e-011 7.071068e-011 7.071068e-011
569122874.90891 7.071068e-011 7.071068e-011 -2.374342e-001 3.027996e-001 7.071068e-011 7.071068e-011 7.071068e-011 7.071068e-011
586474471.36287 7.071068e-011 7.071068e-011 7.561971e-002 3.760251e-001 7.071068e-011 7.071068e-011 7.071068e-011 7.071068e-011
603826067.81683 7.071068e-011 7.071068e-011 3.551036e-001 1.732699e-001 7.071068e-011 7.071068e-011 7.071068e-011 7.071068e-011
621177664.27079 7.071068e-011 7.071068e-011 3.433325e-001 -1.847631e-001 7.071068e-011 7.071068e-011 7.071068e-011 7.071068e-011
638529260.72475 7.071068e-011 7.071068e-011 5.717546e-002 -3.710446e-001 7.071068e-011 7.071068e-011 7.071068e-011 7.071068e-011
655880857.17871 7.071068e-011 7.071068e-011 -2.298368e-001 -2.635122e-001 7.071068e-011 7.071068e-011 7.071068e-011 7.071068e-011
673232453.63267 7.071068e-011 7.071068e-011 -3.453196e-001 -5.474317e-003 7.071068e-011 7.071068e-011 7.071068e-011 7.071068e-011
690584050.08663 7.071068e-011 7.071068e-011 -2.316968e-001 2.677585e-001 7.071068e-011 7.071068e-011 7.071068e-011 7.071068e-011
707935646.54059 7.071068e-011 7.071068e-011 6.626049e-002 3.537218e-001 7.071068e-011 7.071068e-011 7.071068e-011 7.071068e-011
725287242.99455 7.071068e-011 7.071068e-011 3.215656e-001 1.744134e-001 7.071068e-011 7.071068e-011 7.071068e-011 7.071068e-011
742638839.44851 7.071068e-011 7.071068e-011 3.391386e-001 -1.485125e-001 7.071068e-011 7.071068e-011 7.071068e-011 7.071068e-011
759990435.90246 7.071068e-011 7.071068e-011 9.213599e-002 -3.651084e-001 7.071068e-011 7.071068e-011 7.071068e-011 7.071068e-011
777342032.35642 7.071068e-011 7.071068e-011 -2.162197e-001 -2.855765e-001 7.071068e-011 7.071068e-011 7.071068e-011 7.071068e-011
794693628.81038 7.071068e-011 7.071068e-011 -3.520587e-001 -1.542732e-002 7.071068e-011 7.071068e-011 7.071068e-011 7.071068e-011
812045225.26434 7.071068e-011 7.071068e-011 -2.386562e-001 2.646646e-001 7.071068e-011 7.071068e-011 7.071068e-011 7.071068e-011
829396821.7183 7.071068e-011 7.071068e-011 5.121952e-002 3.469391e-001 7.071068e-011 7.071068e-011 7.071068e-011 7.071068e-011
846748418.17226 7.071068e-011 7.071068e-011 2.983995e-001 1.884459e-001 7.071068e-011 7.071068e-011 7.071068e-011 7.071068e-011
864100014.62622 7.071068e-011 7.071068e-011 3.443191e-001 -1.110317e-001 7.071068e-011 7.071068e-011 7.071068e-011 7.071068e-011
881451611.08018 7.071068e-011 7.071068e-011 1.240677e-001 -3.538635e-001 7.071068e-011 7.071068e-011 7.071068e-011 7.071068e-011
898803207.53414 7.071068e-011 7.071068e-011 -2.031205e-001 -3.046618e-001 7.071068e-011 7.071068e-011 7.071068e-011 7.071068e-011
916154803.9881 7.071068e-011 7.071068e-011 -3.542913e-001 -3.570762e-002 7.071068e-011 7.071068e-011 7.071068e-011 7.071068e-011
933506400.44206 7.071068e-011 7.071068e-011 -2.540607e-001 2.516415e-001 7.071068e-011 7.071068e-011 7.071068e-011 7.071068e-011
950857996.89602 7.071068e-011 7.071068e-011 3.513603e-002 3.572368e-001 7.071068e-011 7.071068e-011 7.071068e-011 7.071068e-011
968209593.34998 7.071068e-011 7.071068e-011 2.916776e-001 1.921423e-001 7.071068e-011 7.071068e-011 7.071068e-011 7.071068e-011
985561189.80394 7.071068e-011 7.071068e-011 3.338656e-001 -8.924899e-002 7.071068e-011 7.071068e-011 7.071068e-011 7.071068e-011
1002912786.2579 7.071068e-011 7.071068e-011 1.562061e-001 -3.209049e-001 7.071068e-011 7.071068e-011 7.071068e-011 7.071068e-011
1020264382.7119 7.071068e-011 7.071068e-011 -1.567703e-001 -3.324424e-001 7.071068e-011 7.071068e-011 7.071068e-011 7.071068e-011
1037615979.1658 7.071068e-011 7.071068e-011 -3.558862e-001 -8.363114e-002 7.071068e-011 7.071068e-011 7.071068e-011 7.071068e-011
1054967575.6198 7.071068e-011 7.071068e-011 -2.955368e-001 2.175665e-001 7.071068e-011 7.071068e-011 7.071068e-011 7.071068e-011
1072319172.0737 7.071068e-011 7.071068e-011 -2.104216e-002 3.772161e-001 7.071068e-011 7.071068e-011 7.071068e-011 7.071068e-011
1089670768.5277 7.071068e-011 7.071068e-011 2.870380e-001 2.587365e-001 7.071068e-011 7.071068e-011 7.071068e-011 7.071068e-011
1107022364.9817 7.071068e-011 7.071068e-011 3.797648e-001 -6.048485e-002 7.071068e-011 7.071068e-011 7.071068e-011 7.071068e-011
1124373961.4356 7.071068e-011 7.071068e-011 2.031589e-001 -3.317374e-001 7.071068e-011 7.071068e-011 7.071068e-011 7.071068e-011
1141725557.8896 7.071068e-011 7.071068e-011 -1.266931e-001 -3.799655e-001 7.071068e-011 7.071068e-011 7.071068e-011 7.071068e-011
1159077154.3435 7.071068e-011 7.071068e-011 -3.900470e-001 -1.486839e-001 7.071068e-011 7.071068e-011 7.071068e-011 7.071068e-011
1176428750.7975 7.071068e-011 7.071068e-011 -3.673980e-001 2.265633e-001 7.071068e-011 7.071068e-011 7.071068e-011 7.071068e-011
1193780347.2515 7.071068e-011 7.071068e-011 -4.833329e-002 4.280678e-001 7.071068e-011 7.071068e-011 7.071068e-011 7.071068e-011
1211131943.7054 7.071068e-011 7.071068e-011 2.982337e-001 3.095752e-001 7.071068e-011 7.071068e-011 7.071068e-011 7.071068e-011
1228483540.1594 7.071068e-011 7.071068e-011 4.380884e-001 -2.905993e-002 7.071068e-011 7.071068e-011 7.071068e-011 7.071068e-011
1245835136.6133 7.071068e-011 7.071068e-011 2.647870e-001 -3.724583e-001 7.071068e-011 7.071068e-011 7.071068e-011 7.071068e-011
1263186733.0673 7.071068e-011 7.071068e-011 -1.397688e-001 -4.548784e-001 7.071068e-011 7.071068e-011 7.071068e-011 7.071068e-011
1280538329.5213 7.071068e-011 7.071068e-011 -4.515999e-001 -1.652679e-001 7.071068e-011 7.071068e-011 7.071068e-011 7.071068e-011
1297889925.9752 7.071068e-011 7.071068e-011 -4.109040e-001 2.537804e-001 7.071068e-011 7.071068e-011 7.071068e-011 7.071068e-011
1315241522.4292 7.071068e-011 7.071068e-011 -5.603200e-002 4.840232e-001 7.071068e-011 7.071068e-011 7.071068e-011 7.071068e-011
1332593118.8831 7.071068e-011 7.071068e-011 3.467073e-001 3.436828e-001 7.071068e-011 7.071068e-011 7.071068e-011 7.071068e-011
1349944715.3371 7.071068e-011 7.071068e-011 4.788924e-001 -4.990123e-002 7.071068e-011 7.071068e-011 7.071068e-011 7.071068e-011
1367296311.7911 7.071068e-011 7.071068e-011 2.747554e-001 -4.048899e-001 7.071068e-011 7.071068e-011 7.071068e-011 7.071068e-011
1384647908.245 7.071068e-011 7.071068e-011 -1.443944e-001 -4.781976e-001 7.071068e-011 7.071068e-011 7.071068e-011 7.071068e-011
1401999504.699 7.071068e-011 7.071068e-011 -4.720207e-001 -1.928808e-001 7.071068e-011 7.071068e-011 7.071068e-011 7.071068e-011
1419351101.1529 7.071068e-011 7.071068e-011 -4.574670e-001 2.541974e-001 7.071068e-011 7.071068e-011 7.071068e-011 7.071068e-011
1436702697.6069 7.071068e-011 7.071068e-011 -8.510887e-002 5.322218e-001 7.071068e-011 7.071068e-011 7.071068e-011 7.071068e-011
1454054294.0609 7.071068e-011 7.071068e-011 3.730220e-001 3.953135e-001 7.071068e-011 7.071068e-011 7.071068e-011 7.071068e-011
1471405890.5148 7.071068e-011 7.071068e-011 5.495712e-001 -4.028309e-002 7.071068e-011 7.071068e-011 7.071068e-011 7.071068e-011
1488757486.9688 7.071068e-011 7.071068e-011 3.250346e-001 -4.730437e-001 7.071068e-011 7.071068e-011 7.071068e-011 7.071068e-011
1506109083.4227 7.071068e-011 7.071068e-011 -1.904053e-001 -5.699011e-001 7.071068e-011 7.071068e-011 7.071068e-011 7.071068e-011
1523460679.8767 7.071068e-011 7.071068e-011 -5.714577e-001 -1.864964e-001 7.071068e-011 7.071068e-011 7.071068e-011 7.071068e-011
1540812276.3306 7.071068e-011 7.071068e-011 -5.027140e-001 3.311996e-001 7.071068e-011 7.071068e-011 7.071068e-011 7.071068e-011
1558163872.7846 7.071068e-011 7.071068e-011 -3.690636e-002 6.127238e-001 7.071068e-011 7.071068e-011 7.071068e-011 7.071068e-011
1575515469.2386 7.071068e-011 7.071068e-011 4.828742e-001 4.028862e-001 7.071068e-011 7.071068e-011 7.071068e-011 7.071068e-011
1592867065.6925 7.071068e-011 7.071068e-011 6.087881e-001 -1.417031e-001 7.071068e-011 7.071068e-011 7.071068e-011 7.071068e-011
1610218662.1465 7.071068e-011 7.071068e-011 2.644198e-001 -5.750866e-001 7.071068e-011 7.071068e-011 7.071068e-011 7.071068e-011
1627570258.6004 7.071068e-011 7.071068e-011 -3.112593e-001 -5.673823e-001 7.071068e-011 7.071068e-011 7.071068e-011 7.071068e-011
1644921855.0544 7.071068e-011 7.071068e-011 -6.301420e-001 -8.630271e-002 7.071068e-011 7.071068e-011 7.071068e-011 7.071068e-011
1662273451.5084 7.071068e-011 7.071068e-011 -4.490100e-001 4.299669e-001 7.071068e-011 7.071068e-011 7.071068e-011 7.071068e-011
1679625047.9623 7.071068e-011 7.071068e-011 4.912234e-002 6.340238e-001 7.071068e-011 7.071068e-011 7.071068e-011 7.071068e-011
1696976644.4163 7.071068e-011 7.071068e-011 5.567799e-001 3.479693e-001 7.071068e-011 7.071068e-011 7.071068e-011 7.071068e-011
1714328240.8702 7.071068e-011 7.071068e-011 5.890373e-001 -2.344448e-001 7.071068e-011 7.071068e-011 7.071068e-011 7.071068e-011
1731679837.3242 7.071068e-011 7.071068e-011 1.872268e-001 -5.906456e-001 7.071068e-011 7.071068e-011 7.071068e-011 7.071068e-011
1749031433.7782 7.071068e-011 7.071068e-011 -3.439603e-001 -5.278825e-001 7.071068e-011 7.071068e-011 7.071068e-011 7.071068e-011
1766383030.2321 7.071068e-011 7.071068e-011 -6.382910e-001 -4.221591e-002 7.071068e-011 7.071068e-011 7.071068e-011 7.071068e-011
1783734626.6861 7.071068e-011 7.071068e-011 -4.025494e-001 4.741846e-001 7.071068e-011 7.071068e-011 7.071068e-011 7.071068e-011
1801086223.14 7.071068e-011 7.071068e-011 1.145492e-001 5.955774e-001 7.071068e-011 7.071068e-011 7.071068e-011 7.071068e-011
1818437819.594 7.071068e-011 7.071068e-011 5.331945e-001 2.873337e-001 7.071068e-011 7.071068e-011 7.071068e-011 7.071068e-011
1835789416.048 7.071068e-011 7.071068e-011 5.518010e-001 -2.390520e-001 7.071068e-011 7.071068e-011 7.071068e-011 7.071068e-011
1853141012.5019 7.071068e-011 7.071068e-011 1.581883e-001 -5.762303e-001 7.071068e-011 7.071068e-011 7.071068e-011 7.071068e-011
1870492608.9559 7.071068e-011 7.071068e-011 -3.489418e-001 -4.899563e-001 7.071068e-011 7.071068e-011 7.071068e-011 7.071068e-011
1887844205.4098 7.071068e-011 7.071068e-011 -6.056582e-001 -2.842887e-002 7.071068e-011 7.071068e-011 7.071068e-011 7.071068e-011
1905195801.8638 7.071068e-011 7.071068e-011 -3.905316e-001 4.599393e-001 7.071068e-011 7.071068e-011 7.071068e-011 7.071068e-011
1922547398.3178 7.071068e-011 7.071068e-011 1.137882e-001 5.895326e-001 7.071068e-011 7.071068e-011 7.071068e-011 7.071068e-011
1939898994.7717 7.071068e-011 7.071068e-011 5.355305e-001 2.832803e-001 7.071068e-011 7.071068e-011 7.071068e-011 7.071068e-011
1957250591.2257 7.071068e-011 7.071068e-011 5.573903e-001 -2.495886e-001 7.071068e-011 7.071068e-011 7.071068e-011 7.071068e-011
1974602187.6796 7.071068e-011 7.071068e-011 1.458643e-001 -5.951785e-001 7.071068e-011 7.071068e-011 7.071068e-011 7.071068e-011
1991953784.1336 7.071068e-011 7.071068e-011 -3.812849e-001 -4.808642e-001 7.071068e-011 7.071068e-011 7.071068e-011 7.071068e-011
2009305380.5876 7.071068e-011 7.071068e-011 -6.118333e-001 7.074657e-003 7.071068e-011 7.071068e-011 7.071068e-011 7.071068e-011
2026656977.0415 7.071068e-011 7.071068e-011 -3.633071e-001 4.880058e-001 7.071068e-011 7.071068e-011 7.071068e-011 7.071068e-011
2044008573.4955 7.071068e-011 7.071068e-011 1.617009e-001 5.785326e-001 7.071068e-011 7.071068e-011 7.071068e-011 7.071068e-011
2061360169.9494 7.071068e-011 7.071068e-011 5.465168e-001 2.226966e-001 7.071068e-011 7.071068e-011 7.071068e-011 7.071068e-011
2078711766.4034 7.071068e-011 7.071068e-011 5.006933e-001 -2.838427e-001 7.071068e-011 7.071068e-011 7.071068e-011 7.071068e-011
2096063362.8574 7.071068e-011 7.071068e-011 9.249347e-002 -5.595971e-001 7.071068e-011 7.071068e-011 7.071068e-011 7.071068e-011
2113414959.3113 7.071068e-011 7.071068e-011 -3.758405e-001 -4.230334e-001 7.071068e-011 7.071068e-011 7.071068e-011 7.071068e-011
2130766555.7653 7.071068e-011 7.071068e-011 -5.623129e-001 3.150564e-002 7.071068e-011 7.071068e-011 7.071068e-011 7.071068e-011
2148118152.2192 7.071068e-011 7.071068e-011 -3.202638e-001 4.577264e-001 7.071068e-011 7.071068e-011 7.071068e-011 7.071068e-011
2165469748.6732 7.071068e-011 7.071068e-011 1.548642e-001 5.329427e-001 7.071068e-011 7.071068e-011 7.071068e-011 7.071068e-011
2182821345.1272 7.071068e-011 7.071068e-011 5.133242e-001 2.119237e-001 7.071068e-011 7.071068e-011 7.071068e-011 7.071068e-011
2200172941.5811 7.071068e-011 7.071068e-011 4.822815e-001 -2.706029e-001 7.071068e-011 7.071068e-011 7.071068e-011 7.071068e-011
2217524538.0351 7.071068e-011 7.071068e-011 8.786656e-002 -5.446939e-001 7.071068e-011 7.071068e-011 7.071068e-011 7.071068e-011
2234876134.489 7.071068e-011 7.071068e-011 -3.715110e-001 -4.096807e-001 7.071068e-011 7.071068e-011 7.071068e-011 7.071068e-011
2252227730.943 7.071068e-011 7.071068e-011 -5.496320e-001 3.979979e-002 7.071068e-011 7.071068e-011 7.071068e-011 7.071068e-011
2269579327.397 7.071068e-011 7.071068e-011 -3.081469e-001 4.487236e-001 7.071068e-011 7.071068e-011 7.071068e-011 7.071068e-011
2286930923.8509 7.071068e-011 7.071068e-011 1.498582e-001 5.212973e-001 7.071068e-011 7.071068e-011 7.071068e-011 7.071068e-011
2304282520.3049 7.071068e-011 7.071068e-011 5.034648e-001 2.115449e-001 7.071068e-011 7.071068e-011 7.071068e-011 7.071068e-011
2321634116.7588 7.071068e-011 7.071068e-011 4.739052e-001 -2.621276e-001 7.071068e-011 7.071068e-011 7.071068e-011 7.071068e-011
2338985713.2128 7.071068e-011 7.071068e-011 9.768994e-002 -5.274778e-001 7.071068e-011 7.071068e-011 7.071068e-011 7.071068e-011
2356337309.6668 7.071068e-011 7.071068e-011 -3.419107e-001 -4.197830e-001 7.071068e-011 7.071068e-011 7.071068e-011 7.071068e-011
2373688906.1207 7.071068e-011 7.071068e-011 -5.532758e-001 3.188522e-003 7.071068e-011 7.071068e-011 7.071068e-011 7.071068e-011
2391040502.5747 7.071068e-011 7.071068e-011 -3.369915e-001 4.410233e-001 7.071068e-011 7.071068e-011 7.071068e-011 7.071068e-011
2408392099.0286 7.071068e-011 7.071068e-011 1.258361e-001 5.354757e-001 7.071068e-011 7.071068e-011 7.071068e-011 7.071068e-011
2425743695.4826 7.071068e-011 7.071068e-011 4.935988e-001 2.468120e-001 7.071068e-011 7.071068e-011 7.071068e-011 7.071068e-011
2443095291.9366 7.071068e-011 7.071068e-011 5.145823e-001 -2.348845e-001 7.071068e-011 7.071068e-011 7.071068e-011 7.071068e-011
2460446888.3905 7.071068e-011 7.071068e-011 1.321952e-001 -5.577383e-001 7.071068e-011 7.071068e-011 7.071068e-011 7.071068e-011
2477798484.8445 7.071068e-011 7.071068e-011 -3.550620e-001 -4.498133e-001 7.071068e-011 7.071068e-011 7.071068e-011 7.071068e-011
2495150081.2984 7.071068e-011 7.071068e-011 -5.732235e-001 5.839490e-004 7.071068e-011 7.071068e-011 7.071068e-011 7.071068e-011
2512501677.7524 7.071068e-011 7.071068e-011 -3.528761e-001 4.507208e-001 7.071068e-011 7.071068e-011 7.071068e-011 7.071068e-011
2529853274.2063 7.071068e-011 7.071068e-011 1.293251e-001 5.534454e-001 7.071068e-011 7.071068e-011 7.071068e-011 7.071068e-011
2547204870.6603 7.071068e-011 7.071068e-011 5.087970e-001 2.484930e-001 7.071068e-011 7.071068e-011 7.071068e-011 7.071068e-011
2564556467.1143 7.071068e-011 7.071068e-011 5.137315e-001 -2.450632e-001 7.071068e-011 7.071068e-011 7.071068e-011 7.071068e-011
2581908063.5682 7.071068e-011 7.071068e-011 1.247472e-001 -5.564125e-001 7.071068e-011 7.071068e-011 7.071068e-011 7.071068e-011
2599259660.0222 7.071068e-011 7.071068e-011 -3.522492e-001 -4.448395e-001 7.071068e-011 7.071068e-011 7.071068e-011 7.071068e-011
2616611256.4761 7.071068e-011 7.071068e-011 -5.705467e-001 -2.654058e-003 7.071068e-011 7.071068e-011 7.071068e-011 7.071068e-011
2633962852.9301 7.071068e-011 7.071068e-011 -3.539699e-001 4.567704e-001 7.071068e-011 7.071068e-011 7.071068e-011 7.071068e-011
2651314449.3841 7.071068e-011 7.071068e-011 1.436111e-001 5.588673e-001 7.071068e-011 7.071068e-011 7.071068e-011 7.071068e-011
2668666045.838 7.071068e-011 7.071068e-011 5.212685e-001 2.371171e-001 7.071068e-011 7.071068e-011 7.071068e-011 7.071068e-011
2686017642.292 7.071068e-011 7.071068e-011 5.158700e-001 -2.653896e-001 7.071068e-011 7.071068e-011 7.071068e-011 7.071068e-011
2703369238.7459 7.071068e-011 7.071068e-011 1.000476e-001 -5.782488e-001 7.071068e-011 7.071068e-011 7.071068e-011 7.071068e-011
2720720835.1999 7.071068e-011 7.071068e-011 -3.895983e-001 -4.310077e-001 7.071068e-011 7.071068e-011 7.071068e-011 7.071068e-011
2738072431.6539 7.071068e-011 7.071068e-011 -5.797042e-001 3.778481e-002 7.071068e-011 7.071068e-011 7.071068e-011 7.071068e-011
2755424028.1078 7.071068e-011 7.071068e-011 -3.279313e-001 4.883713e-001 7.071068e-011 7.071068e-011 7.071068e-011 7.071068e-011
2772775624.5618 7.071068e-011 7.071068e-011 1.852301e-001 5.567997e-001 7.071068e-011 7.071068e-011 7.071068e-011 7.071068e-011
2790127221.0157 7.071068e-011 7.071068e-011 5.395596e-001 2.066291e-001 7.071068e-011 7.071068e-011 7.071068e-011 7.071068e-011
2807478817.4697 7.071068e-011 7.071068e-011 5.164762e-001 -2.917894e-001 7.071068e-011 7.071068e-011 7.071068e-011 7.071068e-011
2824830413.9237 7.071068e-011 7.071068e-011 8.181648e-002 -6.178150e-001 7.071068e-011 7.071068e-011 7.071068e-011 7.071068e-011
2842182010.3776 7.071068e-011 7.071068e-011 -4.491419e-001 -4.311744e-001 7.071068e-011 7.071068e-011 7.071068e-011 7.071068e-011
2859533606.8316 7.071068e-011 7.071068e-011 -6.006888e-001 8.995519e-002 7.071068e-011 7.071068e-011 7.071068e-011 7.071068e-011
2876885203.2855 7.071068e-011 7.071068e-011 -3.127155e-001 5.273721e-001 7.071068e-011 7.071068e-011 7.071068e-011 7.071068e-011
2894236799.7395 7.071068e-011 7.071068e-011 2.413225e-001 5.900121e-001 7.071068e-011 7.071068e-011 7.071068e-011 7.071068e-011
2911588396.1935 7.071068e-011 7.071068e-011 6.106724e-001 1.473047e-001 7.071068e-011 7.071068e-011 7.071068e-011 7.071068e-011
2928939992.6474 7.071068e-011 7.071068e-011 4.708307e-001 -3.775294e-001 7.071068e-011 7.071068e-011 7.071068e-011 7.071068e-011
2946291589.1014 7.071068e-011 7.071068e-011 4.451250e-003 -6.077009e-001 7.071068e-011 7.071068e-011 7.071068e-011 7.071068e-011
2963643185.5553 7.071068e-011 7.071068e-011 -4.880054e-001 -3.739675e-001 7.071068e-011 7.071068e-011 7.071068e-011 7.071068e-011
2980994782.0093 7.071068e-011 7.071068e-011 -5.700576e-001 1.624551e-001 7.071068e-011 7.071068e-011 7.071068e-011 7.071068e-011
2998346378.4633 7.071068e-011 7.071068e-011 -2.391313e-001 5.340095e-001 7.071068e-011 7.071068e-011 7.071068e-011 7.071068e-011
3015697974.9172 7.071068e-011 7.071068e-011 2.681026e-001 5.298765e-001 7.071068e-011 7.071068e-011 7.071068e-011 7.071068e-011
3033049571.3712 7.071068e-011 7.071068e-011 5.877293e-001 9.247724e-002 7.071068e-011 7.071068e-011 7.071068e-011 7.071068e-011
3050401167.8251 7.071068e-011 7.071068e-011 4.053350e-001 -3.872871e-001 7.071068e-011 7.071068e-011 7.071068e-011 7.071068e-011
3067752764.2791 7.071068e-011 7.071068e-011 -2.702044e-002 -5.445562e-001 7.071068e-011 7.071068e-011 7.071068e-011 7.071068e-011
3085104360.7331 7.071068e-011 7.071068e-011 -4.535639e-001 -3.020039e-001 7.071068e-011 7.071068e-011 7.071068e-011 7.071068e-011
3102455957.187 7.071068e-011 7.071068e-011 -5.051421e-001 1.868585e-001 7.071068e-011 7.071068e-011 7.071068e-011 7.071068e-011
3119807553.641 7.071068e-011 7.071068e-011 -1.454325e-001 4.824142e-001 7.071068e-011 7.071068e-011 7.071068e-011 7.071068e-011
3137159150.0949 7.071068e-011 7.071068e-011 2.663631e-001 4.061143e-001 7.071068e-011 7.071068e-011 7.071068e-011 7.071068e-011
3154510746.5489 7.071068e-011 7.071068e-011 4.889471e-001 5.344592e-002 7.071068e-011 7.071068e-011 7.071068e-011 7.071068e-011
